
T6468 000:369 SEGGER J-Link V4.98e Log File (0001ms, 0277ms total)
T6468 000:369 DLL Compiled: May  5 2015 11:00:52 (0001ms, 0277ms total)
T6468 000:369 Logging started @ 2023-07-20 20:28 (0001ms, 0277ms total)
T6468 000:370 JLINK_SetWarnOutHandler(...) (0000ms, 0277ms total)
T6468 000:370 JLINK_OpenEx(...)
Firmware: J-Link ARM-OB STM32 compiled Aug 22 2012 19:52:04
Hardware: V7.00
S/N: 305760245
Feature(s): RDI,FlashDL,FlashBP,JFlash,GDBFull  returns O.K. (0274ms, 0551ms total)
T6468 000:644 JLINK_SetErrorOutHandler(...) (0000ms, 0551ms total)
T6468 000:644 JLINK_ExecCommand("ProjectFile = "D:\kialprogect\遥控飞机\飞行器\电机控制\RVMDK\JLinkSettings.ini"", ...)  returns 0x00 (0000ms, 0551ms total)
T6468 000:650 JLINK_ExecCommand("Device = STM32F103C8", ...)Device "STM32F103C8" selected.  returns 0x00 (0009ms, 0560ms total)
T6468 000:659 JLINK_ExecCommand("DisableConnectionTimeout", ...)  returns 0x01 (0000ms, 0560ms total)
T6468 000:659 JLINK_GetHardwareVersion()  returns 0x11170 (0000ms, 0560ms total)
T6468 000:659 JLINK_GetDLLVersion()  returns 49805 (0000ms, 0560ms total)
T6468 000:659 JLINK_GetFirmwareString(...) (0000ms, 0560ms total)
T6468 000:734 JLINK_GetDLLVersion()  returns 49805 (0001ms, 0561ms total)
T6468 000:735 JLINK_GetCompileDateTime() (0000ms, 0561ms total)
T6468 000:744 JLINK_GetFirmwareString(...) (0000ms, 0561ms total)
T6468 000:756 JLINK_GetHardwareVersion()  returns 0x11170 (0000ms, 0561ms total)
T6468 000:777 JLINK_TIF_Select(JLINKARM_TIF_SWD)  returns 0x00 (0001ms, 0562ms total)
T6468 000:778 JLINK_SetSpeed(5000) (0000ms, 0562ms total)
T6468 000:778 JLINK_GetId() >0x108 TIF>Found SWD-DP with ID 0x1BA01477 >0x0D TIF> >0x28 TIF> >0x0D TIF> >0x28 TIF> >0x0D TIF> >0x21 TIF> >0x0D TIF> >0x28 TIF> >0x0D TIF> >0x28 TIF> >0x0D TIF> >0x28 TIF> >0x0D TIF> >0x21 TIF> >0x0D TIF> >0x21 TIF> >0x0D TIF> >0x28 TIF> >0x0D TIF> >0x21 TIF> >0x0D TIF> >0x21 TIF> >0x0D TIF> >0x28 TIF> >0x0D TIF> >0x28 TIF> >0x108 TIF>Found SWD-DP with ID 0x1BA01477 >0x0D TIF> >0x21 TIF> >0x0D TIF> >0x28 TIF> >0x0D TIF> >0x28 TIF> >0x0D TIF> >0x21 TIF> >0x0D TIF> >0x28 TIF>
 >0x0D TIF> >0x21 TIF> >0x0D TIF> >0x21 TIF> >0x0D TIF> >0x21 TIF> >0x0D TIF> >0x21 TIF> >0x0D TIF> >0x28 TIF> >0x0D TIF> >0x28 TIF> >0x0D TIF> >0x21 TIF> >0x0D TIF> >0x28 TIF> >0x0D TIF> >0x28 TIF> >0x0D TIF> >0x28 TIF> >0x0D TIF> >0x21 TIF> >0x0D TIF> >0x21 TIF> >0x0D TIF> >0x28 TIF> >0x0D TIF> >0x21 TIF> >0x0D TIF> >0x21 TIF>Found Cortex-M3 r1p1, Little endian. -- CPU_WriteMem(4 bytes @ 0xE0002000) -- CPU_ReadMem(4 bytes @ 0xE000EDF0) -- CPU_WriteMem(4 bytes @ 0xE000EDF0)
 -- CPU_ReadMem(4 bytes @ 0xE0002000)FPUnit: 6 code (BP) slots and 2 literal slots -- CPU_ReadMem(4 bytes @ 0xE000EDFC) -- CPU_WriteMem(4 bytes @ 0xE000EDFC) -- CPU_ReadMem(4 bytes @ 0xE0001000) -- CPU_WriteMem(4 bytes @ 0xE0001000) -- CPU_ReadMem(4 bytes @ 0xE000ED88) -- CPU_WriteMem(4 bytes @ 0xE000ED88) -- CPU_ReadMem(4 bytes @ 0xE000ED88) -- CPU_WriteMem(4 bytes @ 0xE000ED88)CoreSight components:ROMTbl 0 @ E00FF000 -- CPU_ReadMem(16 bytes @ 0xE00FF000) -- CPU_ReadMem(16 bytes @ 0xE000EFF0)
 -- CPU_ReadMem(16 bytes @ 0xE000EFE0)ROMTbl 0 [0]: FFF0F000, CID: B105E00D, PID: 001BB000 SCS -- CPU_ReadMem(16 bytes @ 0xE0001FF0) -- CPU_ReadMem(16 bytes @ 0xE0001FE0)ROMTbl 0 [1]: FFF02000, CID: B105E00D, PID: 001BB002 DWT -- CPU_ReadMem(16 bytes @ 0xE0002FF0) -- CPU_ReadMem(16 bytes @ 0xE0002FE0)ROMTbl 0 [2]: FFF03000, CID: B105E00D, PID: 000BB003 FPB -- CPU_ReadMem(16 bytes @ 0xE0000FF0) -- CPU_ReadMem(16 bytes @ 0xE0000FE0)ROMTbl 0 [3]: FFF01000, CID: B105E00D, PID: 001BB001 ITM
 -- CPU_ReadMem(16 bytes @ 0xE00FF010) -- CPU_ReadMem(16 bytes @ 0xE0040FF0) -- CPU_ReadMem(16 bytes @ 0xE0040FE0)ROMTbl 0 [4]: FFF41000, CID: B105900D, PID: 001BB923 TPIU-Lite >0x0D TIF> >0x21 TIF>  returns 0x1BA01477 (0101ms, 0663ms total)
T6468 000:880 JLINK_GetDLLVersion()  returns 49805 (0000ms, 0664ms total)
T6468 000:880 JLINK_CORE_GetFound()  returns 0x30000FF (0000ms, 0664ms total)
T6468 000:880 JLINK_GetDebugInfo(0x100) -- Value=0xE00FF003  returns 0x00 (0000ms, 0664ms total)
T6468 000:888 JLINK_ReadMem (0xE00FF000, 0x0020 Bytes, ...) -- CPU is running -- CPU_ReadMem(32 bytes @ 0xE00FF000) - Data: 03 F0 F0 FF 03 20 F0 FF 03 30 F0 FF 03 10 F0 FF ...  returns 0x00 (0001ms, 0665ms total)
T6468 000:889 JLINK_ReadMem (0xE000EFF0, 0x0010 Bytes, ...) -- CPU is running -- CPU_ReadMem(16 bytes @ 0xE000EFF0) - Data: 0D 00 00 00 E0 00 00 00 05 00 00 00 B1 00 00 00  returns 0x00 (0000ms, 0665ms total)
T6468 000:889 JLINK_ReadMem (0xE000EFD0, 0x0020 Bytes, ...) -- CPU is running -- CPU_ReadMem(32 bytes @ 0xE000EFD0) - Data: 04 00 00 00 00 00 00 00 00 00 00 00 00 00 00 00 ...  returns 0x00 (0001ms, 0666ms total)
T6468 000:890 JLINK_ReadMem (0xE0001FF0, 0x0010 Bytes, ...) -- CPU is running -- CPU_ReadMem(16 bytes @ 0xE0001FF0) - Data: 0D 00 00 00 E0 00 00 00 05 00 00 00 B1 00 00 00  returns 0x00 (0001ms, 0667ms total)
T6468 000:891 JLINK_ReadMem (0xE0001FD0, 0x0020 Bytes, ...) -- CPU is running -- CPU_ReadMem(32 bytes @ 0xE0001FD0) - Data: 04 00 00 00 00 00 00 00 00 00 00 00 00 00 00 00 ...  returns 0x00 (0001ms, 0668ms total)
T6468 000:892 JLINK_ReadMem (0xE0002FF0, 0x0010 Bytes, ...) -- CPU is running -- CPU_ReadMem(16 bytes @ 0xE0002FF0) - Data: 0D 00 00 00 E0 00 00 00 05 00 00 00 B1 00 00 00  returns 0x00 (0000ms, 0668ms total)
T6468 000:892 JLINK_ReadMem (0xE0002FD0, 0x0020 Bytes, ...) -- CPU is running -- CPU_ReadMem(32 bytes @ 0xE0002FD0) - Data: 04 00 00 00 00 00 00 00 00 00 00 00 00 00 00 00 ...  returns 0x00 (0001ms, 0669ms total)
T6468 000:893 JLINK_ReadMem (0xE0000FF0, 0x0010 Bytes, ...) -- CPU is running -- CPU_ReadMem(16 bytes @ 0xE0000FF0) - Data: 0D 00 00 00 E0 00 00 00 05 00 00 00 B1 00 00 00  returns 0x00 (0001ms, 0670ms total)
T6468 000:894 JLINK_ReadMem (0xE0000FD0, 0x0020 Bytes, ...) -- CPU is running -- CPU_ReadMem(32 bytes @ 0xE0000FD0) - Data: 04 00 00 00 00 00 00 00 00 00 00 00 00 00 00 00 ...  returns 0x00 (0000ms, 0670ms total)
T6468 000:894 JLINK_ReadMem (0xE0040FF0, 0x0010 Bytes, ...) -- CPU is running -- CPU_ReadMem(16 bytes @ 0xE0040FF0) - Data: 0D 00 00 00 90 00 00 00 05 00 00 00 B1 00 00 00  returns 0x00 (0001ms, 0671ms total)
T6468 000:895 JLINK_ReadMem (0xE0040FD0, 0x0020 Bytes, ...) -- CPU is running -- CPU_ReadMem(32 bytes @ 0xE0040FD0) - Data: 04 00 00 00 00 00 00 00 00 00 00 00 00 00 00 00 ...  returns 0x00 (0001ms, 0672ms total)
T6468 000:896 JLINK_ReadMemU32(0xE000ED00, 0x0001 Items, ...) -- CPU is running -- CPU_ReadMem(4 bytes @ 0xE000ED00) - Data: 31 C2 1F 41  returns 0x01 (0000ms, 0672ms total)
T6468 000:896 JLINK_SetResetType(JLINKARM_RESET_TYPE_NORMAL)  returns JLINKARM_RESET_TYPE_NORMAL (0000ms, 0672ms total)
T6468 000:896 JLINK_Reset() -- CPU is running -- CPU_WriteMem(4 bytes @ 0xE000EDF0) -- CPU is running -- CPU_WriteMem(4 bytes @ 0xE000EDFC) >0x35 TIF> -- CPU is running -- CPU_WriteMem(4 bytes @ 0xE000ED0C) -- CPU is running -- CPU_ReadMem(4 bytes @ 0xE000EDF0) -- CPU is running -- CPU_ReadMem(4 bytes @ 0xE000EDF0) -- CPU is running -- CPU_WriteMem(4 bytes @ 0xE000EDF0) -- CPU is running -- CPU_WriteMem(4 bytes @ 0xE000EDFC) -- CPU is running -- CPU_ReadMem(4 bytes @ 0xE000EDF0)
 -- CPU_WriteMem(4 bytes @ 0xE0002000) -- CPU_ReadMem(4 bytes @ 0xE000EDFC) -- CPU_ReadMem(4 bytes @ 0xE0001000) (0020ms, 0692ms total)
T6468 000:916 JLINK_Halt()  returns 0x00 (0000ms, 0692ms total)
T6468 000:916 JLINK_IsHalted()  returns TRUE (0000ms, 0692ms total)
T6468 000:916 JLINK_ReadMemU32(0xE000EDF0, 0x0001 Items, ...) -- CPU_ReadMem(4 bytes @ 0xE000EDF0) - Data: 03 00 03 00  returns 0x01 (0001ms, 0693ms total)
T6468 000:917 JLINK_WriteU32(0xE000EDF0, 0xA05F0003) -- CPU_WriteMem(4 bytes @ 0xE000EDF0)  returns 0x00 (0001ms, 0694ms total)
T6468 000:918 JLINK_WriteU32(0xE000EDFC, 0x01000000) -- CPU_WriteMem(4 bytes @ 0xE000EDFC)  returns 0x00 (0000ms, 0694ms total)
T6468 000:939 JLINK_GetHWStatus(...)  returns 0x00 (0000ms, 0694ms total)
T6468 000:957 JLINK_GetNumBPUnits(Type = 0xFFFFFF00)  returns 0x06 (0000ms, 0694ms total)
T6468 000:957 JLINK_GetNumBPUnits(Type = 0xF0)  returns 0x2000 (0000ms, 0694ms total)
T6468 000:957 JLINK_GetNumWPUnits()  returns 0x04 (0000ms, 0694ms total)
T6468 000:970 JLINK_GetSpeed()  returns 0xFA0 (0000ms, 0694ms total)
T6468 000:978 JLINK_ReadMemU32(0xE000E004, 0x0001 Items, ...) -- CPU_ReadMem(4 bytes @ 0xE000E004) - Data: 01 00 00 00  returns 0x01 (0000ms, 0694ms total)
T6468 000:978 JLINK_ReadMemU32(0xE000E004, 0x0001 Items, ...) -- CPU_ReadMem(4 bytes @ 0xE000E004) - Data: 01 00 00 00  returns 0x01 (0001ms, 0695ms total)
T6468 000:979 JLINK_WriteMem(0xE0001000, 0x001C Bytes, ...) - Data: 01 00 00 00 00 00 00 00 00 00 00 00 00 00 00 00 ... -- CPU_WriteMem(28 bytes @ 0xE0001000)  returns 0x1C (0001ms, 0696ms total)
T6468 000:980 JLINK_ReadMem (0xE0001000, 0x001C Bytes, ...) -- CPU_ReadMem(28 bytes @ 0xE0001000) - Data: 01 00 00 40 00 00 00 00 00 00 00 00 00 00 00 00 ...  returns 0x00 (0001ms, 0697ms total)
T6468 000:981 JLINK_Halt()  returns 0x00 (0000ms, 0697ms total)
T6468 000:981 JLINK_IsHalted()  returns TRUE (0000ms, 0697ms total)
T6468 000:988 JLINK_WriteMem(0x20000000, 0x0164 Bytes, ...) - Data: 00 BE 0A E0 0D 78 2D 06 68 40 08 24 40 00 00 D3 ... -- CPU_WriteMem(356 bytes @ 0x20000000)  returns 0x164 (0005ms, 0702ms total)
T6468 000:993 JLINK_WriteReg(R0, 0x08000000)  returns 0x00 (0000ms, 0702ms total)
T6468 000:993 JLINK_WriteReg(R1, 0x00B71B00)  returns 0x00 (0000ms, 0702ms total)
T6468 000:993 JLINK_WriteReg(R2, 0x00000001)  returns 0x00 (0000ms, 0702ms total)
T6468 000:993 JLINK_WriteReg(R3, 0x00000000)  returns 0x00 (0000ms, 0702ms total)
T6468 000:993 JLINK_WriteReg(R4, 0x00000000)  returns 0x00 (0000ms, 0702ms total)
T6468 000:993 JLINK_WriteReg(R5, 0x00000000)  returns 0x00 (0000ms, 0702ms total)
T6468 000:993 JLINK_WriteReg(R6, 0x00000000)  returns 0x00 (0000ms, 0702ms total)
T6468 000:993 JLINK_WriteReg(R7, 0x00000000)  returns 0x00 (0000ms, 0702ms total)
T6468 000:993 JLINK_WriteReg(R8, 0x00000000)  returns 0x00 (0000ms, 0702ms total)
T6468 000:993 JLINK_WriteReg(R9, 0x20000160)  returns 0x00 (0000ms, 0702ms total)
T6468 000:993 JLINK_WriteReg(R10, 0x00000000)  returns 0x00 (0000ms, 0702ms total)
T6468 000:993 JLINK_WriteReg(R11, 0x00000000)  returns 0x00 (0000ms, 0702ms total)
T6468 000:993 JLINK_WriteReg(R12, 0x00000000)  returns 0x00 (0001ms, 0703ms total)
T6468 000:994 JLINK_WriteReg(R13 (SP), 0x20001000)  returns 0x00 (0000ms, 0703ms total)
T6468 000:994 JLINK_WriteReg(R14, 0x20000001)  returns 0x00 (0000ms, 0703ms total)
T6468 000:994 JLINK_WriteReg(R15 (PC), 0x20000038)  returns 0x00 (0000ms, 0703ms total)
T6468 000:994 JLINK_WriteReg(XPSR, 0x01000000)  returns 0x00 (0000ms, 0703ms total)
T6468 000:994 JLINK_WriteReg(MSP, 0x20001000)  returns 0x00 (0000ms, 0703ms total)
T6468 000:994 JLINK_WriteReg(PSP, 0x20001000)  returns 0x00 (0000ms, 0703ms total)
T6468 000:994 JLINK_WriteReg(CFBP, 0x00000000)  returns 0x00 (0000ms, 0703ms total)
T6468 000:994 JLINK_SetBPEx(Addr = 0x20000000, Type = 0xFFFFFFF2) -- CPU_ReadMem(2 bytes @ 0x20000000)  returns 0x00000001 (0000ms, 0703ms total)
T6468 000:994 JLINK_Go() -- CPU_WriteMem(2 bytes @ 0x20000000) -- CPU_ReadMem(4 bytes @ 0xE0001000) -- CPU_WriteMem(4 bytes @ 0xE0002008) -- CPU_WriteMem(4 bytes @ 0xE000200C) -- CPU_WriteMem(4 bytes @ 0xE0002010) -- CPU_WriteMem(4 bytes @ 0xE0002014) -- CPU_WriteMem(4 bytes @ 0xE0002018) -- CPU_WriteMem(4 bytes @ 0xE000201C) -- CPU_WriteMem(4 bytes @ 0xE0001004) (0007ms, 0710ms total)
T6468 001:001 JLINK_IsHalted() -- CPU_ReadMem(2 bytes @ 0x20000000)  returns TRUE (0004ms, 0714ms total)
T6468 001:005 JLINK_ReadReg(R15 (PC))  returns 0x20000000 (0000ms, 0710ms total)
T6468 001:005 JLINK_ClrBPEx(BPHandle = 0x00000001)  returns 0x00 (0000ms, 0710ms total)
T6468 001:005 JLINK_ReadReg(R0)  returns 0x00000000 (0000ms, 0710ms total)
T6468 001:005 JLINK_WriteReg(R0, 0x08000000)  returns 0x00 (0000ms, 0710ms total)
T6468 001:005 JLINK_WriteReg(R1, 0x00B71B00)  returns 0x00 (0000ms, 0710ms total)
T6468 001:005 JLINK_WriteReg(R2, 0x00000001)  returns 0x00 (0000ms, 0710ms total)
T6468 001:005 JLINK_WriteReg(R3, 0x00000000)  returns 0x00 (0000ms, 0710ms total)
T6468 001:005 JLINK_WriteReg(R4, 0x00000000)  returns 0x00 (0000ms, 0710ms total)
T6468 001:005 JLINK_WriteReg(R5, 0x00000000)  returns 0x00 (0000ms, 0710ms total)
T6468 001:005 JLINK_WriteReg(R6, 0x00000000)  returns 0x00 (0000ms, 0710ms total)
T6468 001:005 JLINK_WriteReg(R7, 0x00000000)  returns 0x00 (0000ms, 0710ms total)
T6468 001:005 JLINK_WriteReg(R8, 0x00000000)  returns 0x00 (0000ms, 0710ms total)
T6468 001:005 JLINK_WriteReg(R9, 0x20000160)  returns 0x00 (0000ms, 0710ms total)
T6468 001:005 JLINK_WriteReg(R10, 0x00000000)  returns 0x00 (0000ms, 0710ms total)
T6468 001:005 JLINK_WriteReg(R11, 0x00000000)  returns 0x00 (0000ms, 0710ms total)
T6468 001:005 JLINK_WriteReg(R12, 0x00000000)  returns 0x00 (0000ms, 0710ms total)
T6468 001:005 JLINK_WriteReg(R13 (SP), 0x20001000)  returns 0x00 (0000ms, 0710ms total)
T6468 001:005 JLINK_WriteReg(R14, 0x20000001)  returns 0x00 (0000ms, 0710ms total)
T6468 001:005 JLINK_WriteReg(R15 (PC), 0x2000007C)  returns 0x00 (0000ms, 0710ms total)
T6468 001:005 JLINK_WriteReg(XPSR, 0x01000000)  returns 0x00 (0000ms, 0710ms total)
T6468 001:005 JLINK_WriteReg(MSP, 0x20001000)  returns 0x00 (0000ms, 0710ms total)
T6468 001:005 JLINK_WriteReg(PSP, 0x20001000)  returns 0x00 (0000ms, 0710ms total)
T6468 001:005 JLINK_WriteReg(CFBP, 0x00000000)  returns 0x00 (0000ms, 0710ms total)
T6468 001:005 JLINK_SetBPEx(Addr = 0x20000000, Type = 0xFFFFFFF2)  returns 0x00000002 (0000ms, 0710ms total)
T6468 001:005 JLINK_Go() -- CPU_ReadMem(4 bytes @ 0xE0001000) (0003ms, 0713ms total)
T6468 001:008 JLINK_IsHalted()  returns FALSE (0000ms, 0713ms total)
T6468 001:101 JLINK_IsHalted() -- CPU_ReadMem(2 bytes @ 0x20000000)  returns TRUE (0003ms, 0716ms total)
T6468 001:104 JLINK_ReadReg(R15 (PC))  returns 0x20000000 (0000ms, 0713ms total)
T6468 001:104 JLINK_ClrBPEx(BPHandle = 0x00000002)  returns 0x00 (0000ms, 0713ms total)
T6468 001:104 JLINK_ReadReg(R0)  returns 0x00000000 (0000ms, 0713ms total)
T6468 001:158 JLINK_WriteReg(R0, 0x00000001)  returns 0x00 (0001ms, 0714ms total)
T6468 001:159 JLINK_WriteReg(R1, 0x00B71B00)  returns 0x00 (0000ms, 0714ms total)
T6468 001:159 JLINK_WriteReg(R2, 0x00000001)  returns 0x00 (0000ms, 0714ms total)
T6468 001:159 JLINK_WriteReg(R3, 0x00000000)  returns 0x00 (0000ms, 0714ms total)
T6468 001:159 JLINK_WriteReg(R4, 0x00000000)  returns 0x00 (0000ms, 0714ms total)
T6468 001:159 JLINK_WriteReg(R5, 0x00000000)  returns 0x00 (0000ms, 0714ms total)
T6468 001:159 JLINK_WriteReg(R6, 0x00000000)  returns 0x00 (0000ms, 0714ms total)
T6468 001:159 JLINK_WriteReg(R7, 0x00000000)  returns 0x00 (0000ms, 0714ms total)
T6468 001:159 JLINK_WriteReg(R8, 0x00000000)  returns 0x00 (0000ms, 0714ms total)
T6468 001:159 JLINK_WriteReg(R9, 0x20000160)  returns 0x00 (0000ms, 0714ms total)
T6468 001:159 JLINK_WriteReg(R10, 0x00000000)  returns 0x00 (0000ms, 0714ms total)
T6468 001:159 JLINK_WriteReg(R11, 0x00000000)  returns 0x00 (0000ms, 0714ms total)
T6468 001:159 JLINK_WriteReg(R12, 0x00000000)  returns 0x00 (0000ms, 0714ms total)
T6468 001:159 JLINK_WriteReg(R13 (SP), 0x20001000)  returns 0x00 (0000ms, 0714ms total)
T6468 001:159 JLINK_WriteReg(R14, 0x20000001)  returns 0x00 (0000ms, 0714ms total)
T6468 001:159 JLINK_WriteReg(R15 (PC), 0x2000006A)  returns 0x00 (0000ms, 0714ms total)
T6468 001:159 JLINK_WriteReg(XPSR, 0x01000000)  returns 0x00 (0000ms, 0714ms total)
T6468 001:159 JLINK_WriteReg(MSP, 0x20001000)  returns 0x00 (0000ms, 0714ms total)
T6468 001:159 JLINK_WriteReg(PSP, 0x20001000)  returns 0x00 (0000ms, 0714ms total)
T6468 001:159 JLINK_WriteReg(CFBP, 0x00000000)  returns 0x00 (0000ms, 0714ms total)
T6468 001:159 JLINK_SetBPEx(Addr = 0x20000000, Type = 0xFFFFFFF2)  returns 0x00000003 (0000ms, 0714ms total)
T6468 001:159 JLINK_Go() -- CPU_ReadMem(4 bytes @ 0xE0001000) (0002ms, 0716ms total)
T6468 001:161 JLINK_IsHalted() -- CPU_ReadMem(2 bytes @ 0x20000000)  returns TRUE (0004ms, 0720ms total)
T6468 001:165 JLINK_ReadReg(R15 (PC))  returns 0x20000000 (0000ms, 0716ms total)
T6468 001:165 JLINK_ClrBPEx(BPHandle = 0x00000003)  returns 0x00 (0000ms, 0716ms total)
T6468 001:165 JLINK_ReadReg(R0)  returns 0x00000000 (0000ms, 0716ms total)
T6468 001:179 JLINK_WriteMem(0x20000000, 0x0164 Bytes, ...) - Data: 00 BE 0A E0 0D 78 2D 06 68 40 08 24 40 00 00 D3 ... -- CPU_WriteMem(356 bytes @ 0x20000000)  returns 0x164 (0005ms, 0721ms total)
T6468 001:184 JLINK_WriteReg(R0, 0x08000000)  returns 0x00 (0000ms, 0721ms total)
T6468 001:184 JLINK_WriteReg(R1, 0x00B71B00)  returns 0x00 (0000ms, 0721ms total)
T6468 001:184 JLINK_WriteReg(R2, 0x00000002)  returns 0x00 (0000ms, 0721ms total)
T6468 001:184 JLINK_WriteReg(R3, 0x00000000)  returns 0x00 (0000ms, 0721ms total)
T6468 001:184 JLINK_WriteReg(R4, 0x00000000)  returns 0x00 (0000ms, 0721ms total)
T6468 001:184 JLINK_WriteReg(R5, 0x00000000)  returns 0x00 (0000ms, 0721ms total)
T6468 001:184 JLINK_WriteReg(R6, 0x00000000)  returns 0x00 (0000ms, 0721ms total)
T6468 001:184 JLINK_WriteReg(R7, 0x00000000)  returns 0x00 (0000ms, 0721ms total)
T6468 001:184 JLINK_WriteReg(R8, 0x00000000)  returns 0x00 (0000ms, 0721ms total)
T6468 001:184 JLINK_WriteReg(R9, 0x20000160)  returns 0x00 (0000ms, 0721ms total)
T6468 001:184 JLINK_WriteReg(R10, 0x00000000)  returns 0x00 (0000ms, 0721ms total)
T6468 001:184 JLINK_WriteReg(R11, 0x00000000)  returns 0x00 (0000ms, 0721ms total)
T6468 001:184 JLINK_WriteReg(R12, 0x00000000)  returns 0x00 (0000ms, 0721ms total)
T6468 001:184 JLINK_WriteReg(R13 (SP), 0x20001000)  returns 0x00 (0000ms, 0721ms total)
T6468 001:184 JLINK_WriteReg(R14, 0x20000001)  returns 0x00 (0000ms, 0721ms total)
T6468 001:184 JLINK_WriteReg(R15 (PC), 0x20000038)  returns 0x00 (0000ms, 0721ms total)
T6468 001:184 JLINK_WriteReg(XPSR, 0x01000000)  returns 0x00 (0000ms, 0721ms total)
T6468 001:184 JLINK_WriteReg(MSP, 0x20001000)  returns 0x00 (0000ms, 0721ms total)
T6468 001:184 JLINK_WriteReg(PSP, 0x20001000)  returns 0x00 (0000ms, 0721ms total)
T6468 001:184 JLINK_WriteReg(CFBP, 0x00000000)  returns 0x00 (0000ms, 0721ms total)
T6468 001:184 JLINK_SetBPEx(Addr = 0x20000000, Type = 0xFFFFFFF2) -- CPU_ReadMem(2 bytes @ 0x20000000)  returns 0x00000004 (0001ms, 0722ms total)
T6468 001:185 JLINK_Go() -- CPU_WriteMem(2 bytes @ 0x20000000) -- CPU_ReadMem(4 bytes @ 0xE0001000) (0003ms, 0725ms total)
T6468 001:188 JLINK_IsHalted() -- CPU_ReadMem(2 bytes @ 0x20000000)  returns TRUE (0004ms, 0729ms total)
T6468 001:192 JLINK_ReadReg(R15 (PC))  returns 0x20000000 (0000ms, 0725ms total)
T6468 001:192 JLINK_ClrBPEx(BPHandle = 0x00000004)  returns 0x00 (0000ms, 0725ms total)
T6468 001:192 JLINK_ReadReg(R0)  returns 0x00000000 (0000ms, 0725ms total)
T6468 001:193 JLINK_WriteMem(0x20000164, 0x0400 Bytes, ...) - Data: B0 09 00 20 89 01 00 08 05 2A 00 08 0D 1D 00 08 ... -- CPU_WriteMem(1024 bytes @ 0x20000164)  returns 0x400 (0012ms, 0737ms total)
T6468 001:205 JLINK_WriteReg(R0, 0x08000000)  returns 0x00 (0000ms, 0737ms total)
T6468 001:205 JLINK_WriteReg(R1, 0x00000400)  returns 0x00 (0000ms, 0737ms total)
T6468 001:205 JLINK_WriteReg(R2, 0x20000164)  returns 0x00 (0000ms, 0737ms total)
T6468 001:205 JLINK_WriteReg(R3, 0x00000000)  returns 0x00 (0000ms, 0737ms total)
T6468 001:205 JLINK_WriteReg(R4, 0x00000000)  returns 0x00 (0000ms, 0737ms total)
T6468 001:205 JLINK_WriteReg(R5, 0x00000000)  returns 0x00 (0000ms, 0737ms total)
T6468 001:205 JLINK_WriteReg(R6, 0x00000000)  returns 0x00 (0000ms, 0737ms total)
T6468 001:205 JLINK_WriteReg(R7, 0x00000000)  returns 0x00 (0000ms, 0737ms total)
T6468 001:205 JLINK_WriteReg(R8, 0x00000000)  returns 0x00 (0000ms, 0737ms total)
T6468 001:205 JLINK_WriteReg(R9, 0x20000160)  returns 0x00 (0000ms, 0737ms total)
T6468 001:205 JLINK_WriteReg(R10, 0x00000000)  returns 0x00 (0000ms, 0737ms total)
T6468 001:205 JLINK_WriteReg(R11, 0x00000000)  returns 0x00 (0000ms, 0737ms total)
T6468 001:205 JLINK_WriteReg(R12, 0x00000000)  returns 0x00 (0000ms, 0737ms total)
T6468 001:205 JLINK_WriteReg(R13 (SP), 0x20001000)  returns 0x00 (0000ms, 0737ms total)
T6468 001:205 JLINK_WriteReg(R14, 0x20000001)  returns 0x00 (0000ms, 0737ms total)
T6468 001:205 JLINK_WriteReg(R15 (PC), 0x200000F4)  returns 0x00 (0000ms, 0737ms total)
T6468 001:205 JLINK_WriteReg(XPSR, 0x01000000)  returns 0x00 (0000ms, 0737ms total)
T6468 001:205 JLINK_WriteReg(MSP, 0x20001000)  returns 0x00 (0000ms, 0737ms total)
T6468 001:205 JLINK_WriteReg(PSP, 0x20001000)  returns 0x00 (0000ms, 0737ms total)
T6468 001:205 JLINK_WriteReg(CFBP, 0x00000000)  returns 0x00 (0000ms, 0737ms total)
T6468 001:205 JLINK_SetBPEx(Addr = 0x20000000, Type = 0xFFFFFFF2)  returns 0x00000005 (0000ms, 0737ms total)
T6468 001:205 JLINK_Go() -- CPU_ReadMem(4 bytes @ 0xE0001000) (0003ms, 0740ms total)
T6468 001:208 JLINK_IsHalted()  returns FALSE (0000ms, 0740ms total)
T6468 001:236 JLINK_IsHalted()  returns FALSE (0000ms, 0740ms total)
T6468 001:238 JLINK_IsHalted()  returns FALSE (0000ms, 0740ms total)
T6468 001:240 JLINK_IsHalted() -- CPU_ReadMem(2 bytes @ 0x20000000)  returns TRUE (0003ms, 0743ms total)
T6468 001:243 JLINK_ReadReg(R15 (PC))  returns 0x20000000 (0000ms, 0740ms total)
T6468 001:243 JLINK_ClrBPEx(BPHandle = 0x00000005)  returns 0x00 (0001ms, 0741ms total)
T6468 001:244 JLINK_ReadReg(R0)  returns 0x00000000 (0000ms, 0741ms total)
T6468 001:245 JLINK_WriteMem(0x20000164, 0x0400 Bytes, ...) - Data: 0F 48 4C 38 00 F0 FC F8 00 BF 0D 48 4C 38 00 F0 ... -- CPU_WriteMem(1024 bytes @ 0x20000164)  returns 0x400 (0012ms, 0753ms total)
T6468 001:257 JLINK_WriteReg(R0, 0x08000400)  returns 0x00 (0000ms, 0753ms total)
T6468 001:257 JLINK_WriteReg(R1, 0x00000400)  returns 0x00 (0000ms, 0753ms total)
T6468 001:257 JLINK_WriteReg(R2, 0x20000164)  returns 0x00 (0000ms, 0753ms total)
T6468 001:257 JLINK_WriteReg(R3, 0x00000000)  returns 0x00 (0000ms, 0753ms total)
T6468 001:257 JLINK_WriteReg(R4, 0x00000000)  returns 0x00 (0000ms, 0753ms total)
T6468 001:257 JLINK_WriteReg(R5, 0x00000000)  returns 0x00 (0000ms, 0753ms total)
T6468 001:257 JLINK_WriteReg(R6, 0x00000000)  returns 0x00 (0000ms, 0753ms total)
T6468 001:257 JLINK_WriteReg(R7, 0x00000000)  returns 0x00 (0000ms, 0753ms total)
T6468 001:257 JLINK_WriteReg(R8, 0x00000000)  returns 0x00 (0000ms, 0753ms total)
T6468 001:257 JLINK_WriteReg(R9, 0x20000160)  returns 0x00 (0000ms, 0753ms total)
T6468 001:257 JLINK_WriteReg(R10, 0x00000000)  returns 0x00 (0000ms, 0753ms total)
T6468 001:257 JLINK_WriteReg(R11, 0x00000000)  returns 0x00 (0000ms, 0753ms total)
T6468 001:257 JLINK_WriteReg(R12, 0x00000000)  returns 0x00 (0000ms, 0753ms total)
T6468 001:257 JLINK_WriteReg(R13 (SP), 0x20001000)  returns 0x00 (0000ms, 0753ms total)
T6468 001:257 JLINK_WriteReg(R14, 0x20000001)  returns 0x00 (0000ms, 0753ms total)
T6468 001:257 JLINK_WriteReg(R15 (PC), 0x200000F4)  returns 0x00 (0000ms, 0753ms total)
T6468 001:257 JLINK_WriteReg(XPSR, 0x01000000)  returns 0x00 (0000ms, 0753ms total)
T6468 001:257 JLINK_WriteReg(MSP, 0x20001000)  returns 0x00 (0000ms, 0753ms total)
T6468 001:257 JLINK_WriteReg(PSP, 0x20001000)  returns 0x00 (0000ms, 0753ms total)
T6468 001:257 JLINK_WriteReg(CFBP, 0x00000000)  returns 0x00 (0000ms, 0753ms total)
T6468 001:257 JLINK_SetBPEx(Addr = 0x20000000, Type = 0xFFFFFFF2)  returns 0x00000006 (0000ms, 0753ms total)
T6468 001:257 JLINK_Go() -- CPU_ReadMem(4 bytes @ 0xE0001000) (0003ms, 0756ms total)
T6468 001:260 JLINK_IsHalted()  returns FALSE (0000ms, 0756ms total)
T6468 001:279 JLINK_IsHalted()  returns FALSE (0000ms, 0756ms total)
T6468 001:283 JLINK_IsHalted()  returns FALSE (0000ms, 0756ms total)
T6468 001:285 JLINK_IsHalted()  returns FALSE (0000ms, 0756ms total)
T6468 001:287 JLINK_IsHalted()  returns FALSE (0000ms, 0756ms total)
T6468 001:289 JLINK_IsHalted()  returns FALSE (0000ms, 0756ms total)
T6468 001:291 JLINK_IsHalted() -- CPU_ReadMem(2 bytes @ 0x20000000)  returns TRUE (0003ms, 0759ms total)
T6468 001:294 JLINK_ReadReg(R15 (PC))  returns 0x20000000 (0000ms, 0756ms total)
T6468 001:294 JLINK_ClrBPEx(BPHandle = 0x00000006)  returns 0x00 (0001ms, 0757ms total)
T6468 001:295 JLINK_ReadReg(R0)  returns 0x00000000 (0000ms, 0757ms total)
T6468 001:298 JLINK_WriteMem(0x20000164, 0x0400 Bytes, ...) - Data: C8 68 60 49 05 F0 66 FA 5F 49 C8 60 5C 49 48 68 ... -- CPU_WriteMem(1024 bytes @ 0x20000164)  returns 0x400 (0012ms, 0769ms total)
T6468 001:310 JLINK_WriteReg(R0, 0x08000800)  returns 0x00 (0000ms, 0769ms total)
T6468 001:310 JLINK_WriteReg(R1, 0x00000400)  returns 0x00 (0000ms, 0769ms total)
T6468 001:310 JLINK_WriteReg(R2, 0x20000164)  returns 0x00 (0000ms, 0769ms total)
T6468 001:310 JLINK_WriteReg(R3, 0x00000000)  returns 0x00 (0000ms, 0769ms total)
T6468 001:310 JLINK_WriteReg(R4, 0x00000000)  returns 0x00 (0000ms, 0769ms total)
T6468 001:310 JLINK_WriteReg(R5, 0x00000000)  returns 0x00 (0000ms, 0769ms total)
T6468 001:310 JLINK_WriteReg(R6, 0x00000000)  returns 0x00 (0000ms, 0769ms total)
T6468 001:310 JLINK_WriteReg(R7, 0x00000000)  returns 0x00 (0000ms, 0769ms total)
T6468 001:310 JLINK_WriteReg(R8, 0x00000000)  returns 0x00 (0000ms, 0769ms total)
T6468 001:310 JLINK_WriteReg(R9, 0x20000160)  returns 0x00 (0000ms, 0769ms total)
T6468 001:310 JLINK_WriteReg(R10, 0x00000000)  returns 0x00 (0000ms, 0769ms total)
T6468 001:310 JLINK_WriteReg(R11, 0x00000000)  returns 0x00 (0000ms, 0769ms total)
T6468 001:310 JLINK_WriteReg(R12, 0x00000000)  returns 0x00 (0000ms, 0769ms total)
T6468 001:310 JLINK_WriteReg(R13 (SP), 0x20001000)  returns 0x00 (0000ms, 0769ms total)
T6468 001:310 JLINK_WriteReg(R14, 0x20000001)  returns 0x00 (0000ms, 0769ms total)
T6468 001:310 JLINK_WriteReg(R15 (PC), 0x200000F4)  returns 0x00 (0000ms, 0769ms total)
T6468 001:310 JLINK_WriteReg(XPSR, 0x01000000)  returns 0x00 (0000ms, 0769ms total)
T6468 001:310 JLINK_WriteReg(MSP, 0x20001000)  returns 0x00 (0000ms, 0769ms total)
T6468 001:310 JLINK_WriteReg(PSP, 0x20001000)  returns 0x00 (0000ms, 0769ms total)
T6468 001:310 JLINK_WriteReg(CFBP, 0x00000000)  returns 0x00 (0000ms, 0769ms total)
T6468 001:310 JLINK_SetBPEx(Addr = 0x20000000, Type = 0xFFFFFFF2)  returns 0x00000007 (0000ms, 0769ms total)
T6468 001:310 JLINK_Go() -- CPU_ReadMem(4 bytes @ 0xE0001000) (0003ms, 0772ms total)
T6468 001:313 JLINK_IsHalted()  returns FALSE (0001ms, 0773ms total)
T6468 001:319 JLINK_IsHalted()  returns FALSE (0000ms, 0772ms total)
T6468 001:321 JLINK_IsHalted()  returns FALSE (0000ms, 0772ms total)
T6468 001:323 JLINK_IsHalted()  returns FALSE (0000ms, 0772ms total)
T6468 001:325 JLINK_IsHalted()  returns FALSE (0000ms, 0772ms total)
T6468 001:327 JLINK_IsHalted()  returns FALSE (0000ms, 0772ms total)
T6468 001:332 JLINK_IsHalted()  returns FALSE (0000ms, 0772ms total)
T6468 001:334 JLINK_IsHalted()  returns FALSE (0000ms, 0772ms total)
T6468 001:336 JLINK_IsHalted()  returns FALSE (0000ms, 0772ms total)
T6468 001:338 JLINK_IsHalted()  returns FALSE (0000ms, 0772ms total)
T6468 001:340 JLINK_IsHalted()  returns FALSE (0000ms, 0772ms total)
T6468 001:342 JLINK_IsHalted()  returns FALSE (0000ms, 0772ms total)
T6468 001:346 JLINK_IsHalted() -- CPU_ReadMem(2 bytes @ 0x20000000)  returns TRUE (0003ms, 0775ms total)
T6468 001:349 JLINK_ReadReg(R15 (PC))  returns 0x20000000 (0000ms, 0772ms total)
T6468 001:349 JLINK_ClrBPEx(BPHandle = 0x00000007)  returns 0x00 (0001ms, 0773ms total)
T6468 001:350 JLINK_ReadReg(R0)  returns 0x00000000 (0000ms, 0773ms total)
T6468 001:351 JLINK_WriteMem(0x20000164, 0x0400 Bytes, ...) - Data: 40 68 01 90 02 99 05 F0 39 FB 03 90 79 48 80 68 ... -- CPU_WriteMem(1024 bytes @ 0x20000164)  returns 0x400 (0012ms, 0785ms total)
T6468 001:363 JLINK_WriteReg(R0, 0x08000C00)  returns 0x00 (0000ms, 0785ms total)
T6468 001:363 JLINK_WriteReg(R1, 0x00000400)  returns 0x00 (0000ms, 0785ms total)
T6468 001:363 JLINK_WriteReg(R2, 0x20000164)  returns 0x00 (0000ms, 0785ms total)
T6468 001:363 JLINK_WriteReg(R3, 0x00000000)  returns 0x00 (0000ms, 0785ms total)
T6468 001:363 JLINK_WriteReg(R4, 0x00000000)  returns 0x00 (0000ms, 0785ms total)
T6468 001:363 JLINK_WriteReg(R5, 0x00000000)  returns 0x00 (0000ms, 0785ms total)
T6468 001:363 JLINK_WriteReg(R6, 0x00000000)  returns 0x00 (0000ms, 0785ms total)
T6468 001:363 JLINK_WriteReg(R7, 0x00000000)  returns 0x00 (0000ms, 0785ms total)
T6468 001:363 JLINK_WriteReg(R8, 0x00000000)  returns 0x00 (0000ms, 0785ms total)
T6468 001:363 JLINK_WriteReg(R9, 0x20000160)  returns 0x00 (0000ms, 0785ms total)
T6468 001:363 JLINK_WriteReg(R10, 0x00000000)  returns 0x00 (0000ms, 0785ms total)
T6468 001:363 JLINK_WriteReg(R11, 0x00000000)  returns 0x00 (0000ms, 0785ms total)
T6468 001:363 JLINK_WriteReg(R12, 0x00000000)  returns 0x00 (0000ms, 0785ms total)
T6468 001:363 JLINK_WriteReg(R13 (SP), 0x20001000)  returns 0x00 (0000ms, 0785ms total)
T6468 001:363 JLINK_WriteReg(R14, 0x20000001)  returns 0x00 (0000ms, 0785ms total)
T6468 001:363 JLINK_WriteReg(R15 (PC), 0x200000F4)  returns 0x00 (0000ms, 0785ms total)
T6468 001:363 JLINK_WriteReg(XPSR, 0x01000000)  returns 0x00 (0000ms, 0785ms total)
T6468 001:363 JLINK_WriteReg(MSP, 0x20001000)  returns 0x00 (0000ms, 0785ms total)
T6468 001:363 JLINK_WriteReg(PSP, 0x20001000)  returns 0x00 (0000ms, 0785ms total)
T6468 001:363 JLINK_WriteReg(CFBP, 0x00000000)  returns 0x00 (0000ms, 0785ms total)
T6468 001:363 JLINK_SetBPEx(Addr = 0x20000000, Type = 0xFFFFFFF2)  returns 0x00000008 (0001ms, 0786ms total)
T6468 001:364 JLINK_Go() -- CPU_ReadMem(4 bytes @ 0xE0001000) (0002ms, 0788ms total)
T6468 001:366 JLINK_IsHalted()  returns FALSE (0000ms, 0788ms total)
T6468 001:381 JLINK_IsHalted()  returns FALSE (0000ms, 0788ms total)
T6468 001:383 JLINK_IsHalted()  returns FALSE (0000ms, 0788ms total)
T6468 001:385 JLINK_IsHalted()  returns FALSE (0000ms, 0788ms total)
T6468 001:387 JLINK_IsHalted()  returns FALSE (0000ms, 0788ms total)
T6468 001:389 JLINK_IsHalted()  returns FALSE (0000ms, 0788ms total)
T6468 001:394 JLINK_IsHalted()  returns FALSE (0000ms, 0788ms total)
T6468 001:396 JLINK_IsHalted()  returns FALSE (0000ms, 0788ms total)
T6468 001:398 JLINK_IsHalted() -- CPU_ReadMem(2 bytes @ 0x20000000)  returns TRUE (0003ms, 0791ms total)
T6468 001:401 JLINK_ReadReg(R15 (PC))  returns 0x20000000 (0000ms, 0788ms total)
T6468 001:401 JLINK_ClrBPEx(BPHandle = 0x00000008)  returns 0x00 (0000ms, 0788ms total)
T6468 001:401 JLINK_ReadReg(R0)  returns 0x00000000 (0000ms, 0788ms total)
T6468 001:403 JLINK_WriteMem(0x20000164, 0x0400 Bytes, ...) - Data: 07 D1 05 49 09 1F 09 68 41 F4 70 21 02 4A 12 1F ... -- CPU_WriteMem(1024 bytes @ 0x20000164)  returns 0x400 (0012ms, 0800ms total)
T6468 001:415 JLINK_WriteReg(R0, 0x08001000)  returns 0x00 (0000ms, 0800ms total)
T6468 001:415 JLINK_WriteReg(R1, 0x00000400)  returns 0x00 (0000ms, 0800ms total)
T6468 001:415 JLINK_WriteReg(R2, 0x20000164)  returns 0x00 (0000ms, 0800ms total)
T6468 001:415 JLINK_WriteReg(R3, 0x00000000)  returns 0x00 (0000ms, 0800ms total)
T6468 001:415 JLINK_WriteReg(R4, 0x00000000)  returns 0x00 (0000ms, 0800ms total)
T6468 001:415 JLINK_WriteReg(R5, 0x00000000)  returns 0x00 (0000ms, 0800ms total)
T6468 001:415 JLINK_WriteReg(R6, 0x00000000)  returns 0x00 (0000ms, 0800ms total)
T6468 001:415 JLINK_WriteReg(R7, 0x00000000)  returns 0x00 (0001ms, 0801ms total)
T6468 001:416 JLINK_WriteReg(R8, 0x00000000)  returns 0x00 (0000ms, 0801ms total)
T6468 001:416 JLINK_WriteReg(R9, 0x20000160)  returns 0x00 (0000ms, 0801ms total)
T6468 001:416 JLINK_WriteReg(R10, 0x00000000)  returns 0x00 (0000ms, 0801ms total)
T6468 001:416 JLINK_WriteReg(R11, 0x00000000)  returns 0x00 (0000ms, 0801ms total)
T6468 001:416 JLINK_WriteReg(R12, 0x00000000)  returns 0x00 (0000ms, 0801ms total)
T6468 001:416 JLINK_WriteReg(R13 (SP), 0x20001000)  returns 0x00 (0000ms, 0801ms total)
T6468 001:416 JLINK_WriteReg(R14, 0x20000001)  returns 0x00 (0000ms, 0801ms total)
T6468 001:416 JLINK_WriteReg(R15 (PC), 0x200000F4)  returns 0x00 (0000ms, 0801ms total)
T6468 001:416 JLINK_WriteReg(XPSR, 0x01000000)  returns 0x00 (0000ms, 0801ms total)
T6468 001:416 JLINK_WriteReg(MSP, 0x20001000)  returns 0x00 (0000ms, 0801ms total)
T6468 001:416 JLINK_WriteReg(PSP, 0x20001000)  returns 0x00 (0000ms, 0801ms total)
T6468 001:416 JLINK_WriteReg(CFBP, 0x00000000)  returns 0x00 (0000ms, 0801ms total)
T6468 001:416 JLINK_SetBPEx(Addr = 0x20000000, Type = 0xFFFFFFF2)  returns 0x00000009 (0000ms, 0801ms total)
T6468 001:416 JLINK_Go() -- CPU_ReadMem(4 bytes @ 0xE0001000) (0002ms, 0803ms total)
T6468 001:418 JLINK_IsHalted()  returns FALSE (0001ms, 0804ms total)
T6468 001:428 JLINK_IsHalted()  returns FALSE (0000ms, 0803ms total)
T6468 001:430 JLINK_IsHalted()  returns FALSE (0000ms, 0803ms total)
T6468 001:432 JLINK_IsHalted()  returns FALSE (0000ms, 0803ms total)
T6468 001:434 JLINK_IsHalted()  returns FALSE (0000ms, 0803ms total)
T6468 001:436 JLINK_IsHalted()  returns FALSE (0000ms, 0803ms total)
T6468 001:438 JLINK_IsHalted()  returns FALSE (0000ms, 0803ms total)
T6468 001:441 JLINK_IsHalted()  returns FALSE (0000ms, 0803ms total)
T6468 001:443 JLINK_IsHalted()  returns FALSE (0000ms, 0803ms total)
T6468 001:445 JLINK_IsHalted()  returns FALSE (0000ms, 0803ms total)
T6468 001:447 JLINK_IsHalted()  returns FALSE (0000ms, 0803ms total)
T6468 001:449 JLINK_IsHalted()  returns FALSE (0000ms, 0803ms total)
T6468 001:451 JLINK_IsHalted() -- CPU_ReadMem(2 bytes @ 0x20000000)  returns TRUE (0003ms, 0806ms total)
T6468 001:454 JLINK_ReadReg(R15 (PC))  returns 0x20000000 (0000ms, 0803ms total)
T6468 001:454 JLINK_ClrBPEx(BPHandle = 0x00000009)  returns 0x00 (0000ms, 0803ms total)
T6468 001:454 JLINK_ReadReg(R0)  returns 0x00000000 (0000ms, 0803ms total)
T6468 001:456 JLINK_WriteMem(0x20000164, 0x0400 Bytes, ...) - Data: 1A 49 48 68 14 49 04 F0 31 FE 04 46 04 F0 92 FD ... -- CPU_WriteMem(1024 bytes @ 0x20000164)  returns 0x400 (0013ms, 0816ms total)
T6468 001:469 JLINK_WriteReg(R0, 0x08001400)  returns 0x00 (0000ms, 0816ms total)
T6468 001:469 JLINK_WriteReg(R1, 0x00000400)  returns 0x00 (0000ms, 0816ms total)
T6468 001:469 JLINK_WriteReg(R2, 0x20000164)  returns 0x00 (0000ms, 0816ms total)
T6468 001:469 JLINK_WriteReg(R3, 0x00000000)  returns 0x00 (0000ms, 0816ms total)
T6468 001:469 JLINK_WriteReg(R4, 0x00000000)  returns 0x00 (0000ms, 0816ms total)
T6468 001:469 JLINK_WriteReg(R5, 0x00000000)  returns 0x00 (0000ms, 0816ms total)
T6468 001:469 JLINK_WriteReg(R6, 0x00000000)  returns 0x00 (0000ms, 0816ms total)
T6468 001:469 JLINK_WriteReg(R7, 0x00000000)  returns 0x00 (0000ms, 0816ms total)
T6468 001:469 JLINK_WriteReg(R8, 0x00000000)  returns 0x00 (0000ms, 0816ms total)
T6468 001:469 JLINK_WriteReg(R9, 0x20000160)  returns 0x00 (0000ms, 0816ms total)
T6468 001:469 JLINK_WriteReg(R10, 0x00000000)  returns 0x00 (0000ms, 0816ms total)
T6468 001:469 JLINK_WriteReg(R11, 0x00000000)  returns 0x00 (0000ms, 0816ms total)
T6468 001:469 JLINK_WriteReg(R12, 0x00000000)  returns 0x00 (0000ms, 0816ms total)
T6468 001:469 JLINK_WriteReg(R13 (SP), 0x20001000)  returns 0x00 (0000ms, 0816ms total)
T6468 001:469 JLINK_WriteReg(R14, 0x20000001)  returns 0x00 (0000ms, 0816ms total)
T6468 001:469 JLINK_WriteReg(R15 (PC), 0x200000F4)  returns 0x00 (0001ms, 0817ms total)
T6468 001:470 JLINK_WriteReg(XPSR, 0x01000000)  returns 0x00 (0000ms, 0817ms total)
T6468 001:470 JLINK_WriteReg(MSP, 0x20001000)  returns 0x00 (0000ms, 0817ms total)
T6468 001:470 JLINK_WriteReg(PSP, 0x20001000)  returns 0x00 (0000ms, 0817ms total)
T6468 001:470 JLINK_WriteReg(CFBP, 0x00000000)  returns 0x00 (0000ms, 0817ms total)
T6468 001:470 JLINK_SetBPEx(Addr = 0x20000000, Type = 0xFFFFFFF2)  returns 0x0000000A (0000ms, 0817ms total)
T6468 001:470 JLINK_Go() -- CPU_ReadMem(4 bytes @ 0xE0001000) (0002ms, 0819ms total)
T6468 001:472 JLINK_IsHalted()  returns FALSE (0001ms, 0820ms total)
T6468 001:490 JLINK_IsHalted()  returns FALSE (0000ms, 0819ms total)
T6468 001:492 JLINK_IsHalted()  returns FALSE (0000ms, 0819ms total)
T6468 001:494 JLINK_IsHalted()  returns FALSE (0000ms, 0819ms total)
T6468 001:496 JLINK_IsHalted()  returns FALSE (0000ms, 0819ms total)
T6468 001:498 JLINK_IsHalted()  returns FALSE (0000ms, 0819ms total)
T6468 001:500 JLINK_IsHalted()  returns FALSE (0000ms, 0819ms total)
T6468 001:507 JLINK_IsHalted() -- CPU_ReadMem(2 bytes @ 0x20000000)  returns TRUE (0003ms, 0822ms total)
T6468 001:510 JLINK_ReadReg(R15 (PC))  returns 0x20000000 (0000ms, 0819ms total)
T6468 001:510 JLINK_ClrBPEx(BPHandle = 0x0000000A)  returns 0x00 (0000ms, 0819ms total)
T6468 001:510 JLINK_ReadReg(R0)  returns 0x00000000 (0000ms, 0819ms total)
T6468 001:512 JLINK_WriteMem(0x20000164, 0x0400 Bytes, ...) - Data: 65 F8 05 46 04 2D 17 D1 0C 48 00 69 40 F0 02 00 ... -- CPU_WriteMem(1024 bytes @ 0x20000164)  returns 0x400 (0012ms, 0831ms total)
T6468 001:524 JLINK_WriteReg(R0, 0x08001800)  returns 0x00 (0000ms, 0831ms total)
T6468 001:524 JLINK_WriteReg(R1, 0x00000400)  returns 0x00 (0000ms, 0831ms total)
T6468 001:524 JLINK_WriteReg(R2, 0x20000164)  returns 0x00 (0000ms, 0831ms total)
T6468 001:524 JLINK_WriteReg(R3, 0x00000000)  returns 0x00 (0000ms, 0831ms total)
T6468 001:524 JLINK_WriteReg(R4, 0x00000000)  returns 0x00 (0000ms, 0831ms total)
T6468 001:524 JLINK_WriteReg(R5, 0x00000000)  returns 0x00 (0000ms, 0831ms total)
T6468 001:524 JLINK_WriteReg(R6, 0x00000000)  returns 0x00 (0000ms, 0831ms total)
T6468 001:524 JLINK_WriteReg(R7, 0x00000000)  returns 0x00 (0001ms, 0832ms total)
T6468 001:525 JLINK_WriteReg(R8, 0x00000000)  returns 0x00 (0000ms, 0832ms total)
T6468 001:525 JLINK_WriteReg(R9, 0x20000160)  returns 0x00 (0000ms, 0832ms total)
T6468 001:525 JLINK_WriteReg(R10, 0x00000000)  returns 0x00 (0000ms, 0832ms total)
T6468 001:525 JLINK_WriteReg(R11, 0x00000000)  returns 0x00 (0000ms, 0832ms total)
T6468 001:525 JLINK_WriteReg(R12, 0x00000000)  returns 0x00 (0000ms, 0832ms total)
T6468 001:525 JLINK_WriteReg(R13 (SP), 0x20001000)  returns 0x00 (0000ms, 0832ms total)
T6468 001:525 JLINK_WriteReg(R14, 0x20000001)  returns 0x00 (0000ms, 0832ms total)
T6468 001:525 JLINK_WriteReg(R15 (PC), 0x200000F4)  returns 0x00 (0000ms, 0832ms total)
T6468 001:525 JLINK_WriteReg(XPSR, 0x01000000)  returns 0x00 (0000ms, 0832ms total)
T6468 001:525 JLINK_WriteReg(MSP, 0x20001000)  returns 0x00 (0000ms, 0832ms total)
T6468 001:525 JLINK_WriteReg(PSP, 0x20001000)  returns 0x00 (0000ms, 0832ms total)
T6468 001:525 JLINK_WriteReg(CFBP, 0x00000000)  returns 0x00 (0000ms, 0832ms total)
T6468 001:525 JLINK_SetBPEx(Addr = 0x20000000, Type = 0xFFFFFFF2)  returns 0x0000000B (0000ms, 0832ms total)
T6468 001:525 JLINK_Go() -- CPU_ReadMem(4 bytes @ 0xE0001000) (0002ms, 0834ms total)
T6468 001:527 JLINK_IsHalted()  returns FALSE (0001ms, 0835ms total)
T6468 001:531 JLINK_IsHalted()  returns FALSE (0000ms, 0834ms total)
T6468 001:536 JLINK_IsHalted()  returns FALSE (0000ms, 0834ms total)
T6468 001:538 JLINK_IsHalted()  returns FALSE (0000ms, 0834ms total)
T6468 001:540 JLINK_IsHalted()  returns FALSE (0000ms, 0834ms total)
T6468 001:542 JLINK_IsHalted()  returns FALSE (0000ms, 0834ms total)
T6468 001:544 JLINK_IsHalted()  returns FALSE (0000ms, 0834ms total)
T6468 001:546 JLINK_IsHalted()  returns FALSE (0000ms, 0834ms total)
T6468 001:554 JLINK_IsHalted()  returns FALSE (0000ms, 0834ms total)
T6468 001:556 JLINK_IsHalted()  returns FALSE (0000ms, 0834ms total)
T6468 001:558 JLINK_IsHalted()  returns FALSE (0000ms, 0834ms total)
T6468 001:560 JLINK_IsHalted() -- CPU_ReadMem(2 bytes @ 0x20000000)  returns TRUE (0003ms, 0837ms total)
T6468 001:563 JLINK_ReadReg(R15 (PC))  returns 0x20000000 (0000ms, 0834ms total)
T6468 001:563 JLINK_ClrBPEx(BPHandle = 0x0000000B)  returns 0x00 (0000ms, 0834ms total)
T6468 001:563 JLINK_ReadReg(R0)  returns 0x00000000 (0001ms, 0835ms total)
T6468 001:564 JLINK_WriteMem(0x20000164, 0x0400 Bytes, ...) - Data: 10 00 00 20 0C 00 00 20 08 00 00 20 04 00 00 20 ... -- CPU_WriteMem(1024 bytes @ 0x20000164)  returns 0x400 (0013ms, 0848ms total)
T6468 001:577 JLINK_WriteReg(R0, 0x08001C00)  returns 0x00 (0000ms, 0848ms total)
T6468 001:577 JLINK_WriteReg(R1, 0x00000400)  returns 0x00 (0000ms, 0848ms total)
T6468 001:577 JLINK_WriteReg(R2, 0x20000164)  returns 0x00 (0000ms, 0848ms total)
T6468 001:577 JLINK_WriteReg(R3, 0x00000000)  returns 0x00 (0000ms, 0848ms total)
T6468 001:577 JLINK_WriteReg(R4, 0x00000000)  returns 0x00 (0000ms, 0848ms total)
T6468 001:577 JLINK_WriteReg(R5, 0x00000000)  returns 0x00 (0000ms, 0848ms total)
T6468 001:577 JLINK_WriteReg(R6, 0x00000000)  returns 0x00 (0000ms, 0848ms total)
T6468 001:577 JLINK_WriteReg(R7, 0x00000000)  returns 0x00 (0000ms, 0848ms total)
T6468 001:577 JLINK_WriteReg(R8, 0x00000000)  returns 0x00 (0000ms, 0848ms total)
T6468 001:577 JLINK_WriteReg(R9, 0x20000160)  returns 0x00 (0000ms, 0848ms total)
T6468 001:577 JLINK_WriteReg(R10, 0x00000000)  returns 0x00 (0000ms, 0848ms total)
T6468 001:577 JLINK_WriteReg(R11, 0x00000000)  returns 0x00 (0000ms, 0848ms total)
T6468 001:577 JLINK_WriteReg(R12, 0x00000000)  returns 0x00 (0000ms, 0848ms total)
T6468 001:577 JLINK_WriteReg(R13 (SP), 0x20001000)  returns 0x00 (0000ms, 0848ms total)
T6468 001:577 JLINK_WriteReg(R14, 0x20000001)  returns 0x00 (0000ms, 0848ms total)
T6468 001:577 JLINK_WriteReg(R15 (PC), 0x200000F4)  returns 0x00 (0000ms, 0848ms total)
T6468 001:577 JLINK_WriteReg(XPSR, 0x01000000)  returns 0x00 (0000ms, 0848ms total)
T6468 001:577 JLINK_WriteReg(MSP, 0x20001000)  returns 0x00 (0000ms, 0848ms total)
T6468 001:577 JLINK_WriteReg(PSP, 0x20001000)  returns 0x00 (0000ms, 0848ms total)
T6468 001:577 JLINK_WriteReg(CFBP, 0x00000000)  returns 0x00 (0000ms, 0848ms total)
T6468 001:577 JLINK_SetBPEx(Addr = 0x20000000, Type = 0xFFFFFFF2)  returns 0x0000000C (0000ms, 0848ms total)
T6468 001:577 JLINK_Go() -- CPU_ReadMem(4 bytes @ 0xE0001000) (0002ms, 0850ms total)
T6468 001:580 JLINK_IsHalted()  returns FALSE (0000ms, 0851ms total)
T6468 001:592 JLINK_IsHalted()  returns FALSE (0000ms, 0851ms total)
T6468 001:594 JLINK_IsHalted()  returns FALSE (0000ms, 0851ms total)
T6468 001:603 JLINK_IsHalted()  returns FALSE (0000ms, 0851ms total)
T6468 001:605 JLINK_IsHalted()  returns FALSE (0000ms, 0851ms total)
T6468 001:607 JLINK_IsHalted()  returns FALSE (0000ms, 0851ms total)
T6468 001:609 JLINK_IsHalted()  returns FALSE (0000ms, 0851ms total)
T6468 001:611 JLINK_IsHalted() -- CPU_ReadMem(2 bytes @ 0x20000000)  returns TRUE (0003ms, 0854ms total)
T6468 001:614 JLINK_ReadReg(R15 (PC))  returns 0x20000000 (0000ms, 0851ms total)
T6468 001:614 JLINK_ClrBPEx(BPHandle = 0x0000000C)  returns 0x00 (0000ms, 0851ms total)
T6468 001:614 JLINK_ReadReg(R0)  returns 0x00000000 (0000ms, 0851ms total)
T6468 001:615 JLINK_WriteMem(0x20000164, 0x0400 Bytes, ...) - Data: 00 F0 10 F8 28 00 A5 F1 01 01 CD B2 D6 D1 4F F4 ... -- CPU_WriteMem(1024 bytes @ 0x20000164)  returns 0x400 (0012ms, 0863ms total)
T6468 001:627 JLINK_WriteReg(R0, 0x08002000)  returns 0x00 (0000ms, 0863ms total)
T6468 001:627 JLINK_WriteReg(R1, 0x00000400)  returns 0x00 (0000ms, 0863ms total)
T6468 001:627 JLINK_WriteReg(R2, 0x20000164)  returns 0x00 (0000ms, 0863ms total)
T6468 001:627 JLINK_WriteReg(R3, 0x00000000)  returns 0x00 (0000ms, 0863ms total)
T6468 001:627 JLINK_WriteReg(R4, 0x00000000)  returns 0x00 (0000ms, 0863ms total)
T6468 001:627 JLINK_WriteReg(R5, 0x00000000)  returns 0x00 (0000ms, 0863ms total)
T6468 001:627 JLINK_WriteReg(R6, 0x00000000)  returns 0x00 (0000ms, 0863ms total)
T6468 001:627 JLINK_WriteReg(R7, 0x00000000)  returns 0x00 (0000ms, 0863ms total)
T6468 001:627 JLINK_WriteReg(R8, 0x00000000)  returns 0x00 (0000ms, 0863ms total)
T6468 001:627 JLINK_WriteReg(R9, 0x20000160)  returns 0x00 (0000ms, 0863ms total)
T6468 001:627 JLINK_WriteReg(R10, 0x00000000)  returns 0x00 (0000ms, 0863ms total)
T6468 001:627 JLINK_WriteReg(R11, 0x00000000)  returns 0x00 (0000ms, 0863ms total)
T6468 001:627 JLINK_WriteReg(R12, 0x00000000)  returns 0x00 (0000ms, 0863ms total)
T6468 001:627 JLINK_WriteReg(R13 (SP), 0x20001000)  returns 0x00 (0000ms, 0863ms total)
T6468 001:627 JLINK_WriteReg(R14, 0x20000001)  returns 0x00 (0000ms, 0863ms total)
T6468 001:627 JLINK_WriteReg(R15 (PC), 0x200000F4)  returns 0x00 (0000ms, 0863ms total)
T6468 001:627 JLINK_WriteReg(XPSR, 0x01000000)  returns 0x00 (0001ms, 0864ms total)
T6468 001:628 JLINK_WriteReg(MSP, 0x20001000)  returns 0x00 (0000ms, 0864ms total)
T6468 001:628 JLINK_WriteReg(PSP, 0x20001000)  returns 0x00 (0000ms, 0864ms total)
T6468 001:628 JLINK_WriteReg(CFBP, 0x00000000)  returns 0x00 (0000ms, 0864ms total)
T6468 001:628 JLINK_SetBPEx(Addr = 0x20000000, Type = 0xFFFFFFF2)  returns 0x0000000D (0000ms, 0864ms total)
T6468 001:628 JLINK_Go() -- CPU_ReadMem(4 bytes @ 0xE0001000) (0002ms, 0866ms total)
T6468 001:630 JLINK_IsHalted()  returns FALSE (0000ms, 0866ms total)
T6468 001:635 JLINK_IsHalted()  returns FALSE (0000ms, 0866ms total)
T6468 001:637 JLINK_IsHalted()  returns FALSE (0000ms, 0866ms total)
T6468 001:639 JLINK_IsHalted()  returns FALSE (0000ms, 0866ms total)
T6468 001:641 JLINK_IsHalted()  returns FALSE (0000ms, 0866ms total)
T6468 001:649 JLINK_IsHalted()  returns FALSE (0000ms, 0866ms total)
T6468 001:651 JLINK_IsHalted()  returns FALSE (0000ms, 0866ms total)
T6468 001:653 JLINK_IsHalted()  returns FALSE (0000ms, 0866ms total)
T6468 001:655 JLINK_IsHalted()  returns FALSE (0000ms, 0866ms total)
T6468 001:657 JLINK_IsHalted()  returns FALSE (0000ms, 0866ms total)
T6468 001:660 JLINK_IsHalted()  returns FALSE (0000ms, 0866ms total)
T6468 001:662 JLINK_IsHalted() -- CPU_ReadMem(2 bytes @ 0x20000000)  returns TRUE (0004ms, 0870ms total)
T6468 001:666 JLINK_ReadReg(R15 (PC))  returns 0x20000000 (0000ms, 0866ms total)
T6468 001:666 JLINK_ClrBPEx(BPHandle = 0x0000000D)  returns 0x00 (0000ms, 0866ms total)
T6468 001:666 JLINK_ReadReg(R0)  returns 0x00000000 (0000ms, 0866ms total)
T6468 001:666 JLINK_WriteMem(0x20000164, 0x0400 Bytes, ...) - Data: 00 24 01 20 FF F7 34 F8 04 46 AB 2C 06 D1 12 48 ... -- CPU_WriteMem(1024 bytes @ 0x20000164)  returns 0x400 (0013ms, 0879ms total)
T6468 001:679 JLINK_WriteReg(R0, 0x08002400)  returns 0x00 (0000ms, 0879ms total)
T6468 001:679 JLINK_WriteReg(R1, 0x00000400)  returns 0x00 (0000ms, 0879ms total)
T6468 001:679 JLINK_WriteReg(R2, 0x20000164)  returns 0x00 (0000ms, 0879ms total)
T6468 001:679 JLINK_WriteReg(R3, 0x00000000)  returns 0x00 (0000ms, 0879ms total)
T6468 001:679 JLINK_WriteReg(R4, 0x00000000)  returns 0x00 (0000ms, 0879ms total)
T6468 001:679 JLINK_WriteReg(R5, 0x00000000)  returns 0x00 (0000ms, 0879ms total)
T6468 001:679 JLINK_WriteReg(R6, 0x00000000)  returns 0x00 (0000ms, 0879ms total)
T6468 001:679 JLINK_WriteReg(R7, 0x00000000)  returns 0x00 (0000ms, 0879ms total)
T6468 001:679 JLINK_WriteReg(R8, 0x00000000)  returns 0x00 (0000ms, 0879ms total)
T6468 001:679 JLINK_WriteReg(R9, 0x20000160)  returns 0x00 (0000ms, 0879ms total)
T6468 001:679 JLINK_WriteReg(R10, 0x00000000)  returns 0x00 (0000ms, 0879ms total)
T6468 001:679 JLINK_WriteReg(R11, 0x00000000)  returns 0x00 (0000ms, 0879ms total)
T6468 001:679 JLINK_WriteReg(R12, 0x00000000)  returns 0x00 (0000ms, 0879ms total)
T6468 001:679 JLINK_WriteReg(R13 (SP), 0x20001000)  returns 0x00 (0000ms, 0879ms total)
T6468 001:679 JLINK_WriteReg(R14, 0x20000001)  returns 0x00 (0000ms, 0879ms total)
T6468 001:679 JLINK_WriteReg(R15 (PC), 0x200000F4)  returns 0x00 (0000ms, 0879ms total)
T6468 001:679 JLINK_WriteReg(XPSR, 0x01000000)  returns 0x00 (0000ms, 0879ms total)
T6468 001:679 JLINK_WriteReg(MSP, 0x20001000)  returns 0x00 (0000ms, 0879ms total)
T6468 001:679 JLINK_WriteReg(PSP, 0x20001000)  returns 0x00 (0000ms, 0879ms total)
T6468 001:679 JLINK_WriteReg(CFBP, 0x00000000)  returns 0x00 (0000ms, 0879ms total)
T6468 001:679 JLINK_SetBPEx(Addr = 0x20000000, Type = 0xFFFFFFF2)  returns 0x0000000E (0000ms, 0879ms total)
T6468 001:679 JLINK_Go() -- CPU_ReadMem(4 bytes @ 0xE0001000) (0002ms, 0881ms total)
T6468 001:681 JLINK_IsHalted()  returns FALSE (0001ms, 0882ms total)
T6468 001:686 JLINK_IsHalted()  returns FALSE (0000ms, 0881ms total)
T6468 001:688 JLINK_IsHalted()  returns FALSE (0000ms, 0881ms total)
T6468 001:708 JLINK_IsHalted()  returns FALSE (0000ms, 0881ms total)
T6468 001:710 JLINK_IsHalted()  returns FALSE (0000ms, 0881ms total)
T6468 001:712 JLINK_IsHalted()  returns FALSE (0000ms, 0881ms total)
T6468 001:714 JLINK_IsHalted() -- CPU_ReadMem(2 bytes @ 0x20000000)  returns TRUE (0003ms, 0884ms total)
T6468 001:717 JLINK_ReadReg(R15 (PC))  returns 0x20000000 (0000ms, 0881ms total)
T6468 001:717 JLINK_ClrBPEx(BPHandle = 0x0000000E)  returns 0x00 (0000ms, 0881ms total)
T6468 001:717 JLINK_ReadReg(R0)  returns 0x00000000 (0000ms, 0881ms total)
T6468 001:719 JLINK_WriteMem(0x20000164, 0x0400 Bytes, ...) - Data: 14 49 09 78 90 FB F1 F0 00 B2 13 49 48 80 15 48 ... -- CPU_WriteMem(1024 bytes @ 0x20000164)  returns 0x400 (0012ms, 0893ms total)
T6468 001:731 JLINK_WriteReg(R0, 0x08002800)  returns 0x00 (0000ms, 0893ms total)
T6468 001:731 JLINK_WriteReg(R1, 0x00000400)  returns 0x00 (0000ms, 0893ms total)
T6468 001:731 JLINK_WriteReg(R2, 0x20000164)  returns 0x00 (0000ms, 0893ms total)
T6468 001:731 JLINK_WriteReg(R3, 0x00000000)  returns 0x00 (0000ms, 0893ms total)
T6468 001:732 JLINK_WriteReg(R4, 0x00000000)  returns 0x00 (0000ms, 0894ms total)
T6468 001:732 JLINK_WriteReg(R5, 0x00000000)  returns 0x00 (0000ms, 0894ms total)
T6468 001:732 JLINK_WriteReg(R6, 0x00000000)  returns 0x00 (0000ms, 0894ms total)
T6468 001:732 JLINK_WriteReg(R7, 0x00000000)  returns 0x00 (0000ms, 0894ms total)
T6468 001:732 JLINK_WriteReg(R8, 0x00000000)  returns 0x00 (0000ms, 0894ms total)
T6468 001:732 JLINK_WriteReg(R9, 0x20000160)  returns 0x00 (0000ms, 0894ms total)
T6468 001:732 JLINK_WriteReg(R10, 0x00000000)  returns 0x00 (0000ms, 0894ms total)
T6468 001:732 JLINK_WriteReg(R11, 0x00000000)  returns 0x00 (0000ms, 0894ms total)
T6468 001:732 JLINK_WriteReg(R12, 0x00000000)  returns 0x00 (0000ms, 0894ms total)
T6468 001:732 JLINK_WriteReg(R13 (SP), 0x20001000)  returns 0x00 (0000ms, 0894ms total)
T6468 001:732 JLINK_WriteReg(R14, 0x20000001)  returns 0x00 (0000ms, 0894ms total)
